
**** 04/10/22 14:27:31 *********** Evaluation PSpice (Nov 1999) **************

 * D:\UM\YEAR 2\SEM 2\KIE2001\E1\E1_Simulation.sch


 ****     CIRCUIT DESCRIPTION


******************************************************************************




* Schematics Version 9.1 - Web Update 1
* Sun Apr 10 14:26:47 2022



** Analysis setup **
.ac DEC 200 100 23k
.tran 0ns 0.005 0 10u
.OP 


* From [PSPICE NETLIST] section of pspiceev.ini:
.lib "nom.lib"

.INC "E1_Simulation.net"

**** INCLUDING E1_Simulation.net ****
* Schematics Netlist *



R_R1         $N_0002 $N_0001  1k  
R_R3         $N_0004 $N_0003  220  
R_R5         0 $N_0005  47  
R_R2         $N_0006 $N_0003  10k  
R_R4         0 $N_0006  2.2k  
C_C2         $N_0004 $N_0007  1u  
V_V1         $N_0003 0 12V
Q_Q1         $N_0004 $N_0006 $N_0005 Q2N2222
C_C1         $N_0001 $N_0006  1u  
V_V3         $N_0002 0 DC 0V AC 0.5V 
R_R6         0 $N_0007  1M  

**** RESUMING E1_Simulation.cir ****
.INC "E1_Simulation.als"



**** INCLUDING E1_Simulation.als ****
* Schematics Aliases *

.ALIASES
R_R1            R1(1=$N_0002 2=$N_0001 )
R_R3            R3(1=$N_0004 2=$N_0003 )
R_R5            R5(1=0 2=$N_0005 )
R_R2            R2(1=$N_0006 2=$N_0003 )
R_R4            R4(1=0 2=$N_0006 )
C_C2            C2(1=$N_0004 2=$N_0007 )
V_V1            V1(+=$N_0003 -=0 )
Q_Q1            Q1(c=$N_0004 b=$N_0006 e=$N_0005 )
C_C1            C1(1=$N_0001 2=$N_0006 )
V_V3            V3(+=$N_0002 -=0 )
R_R6            R6(1=0 2=$N_0007 )
.ENDALIASES


**** RESUMING E1_Simulation.cir ****
.probe


.END

**** 04/10/22 14:27:31 *********** Evaluation PSpice (Nov 1999) **************

 * D:\UM\YEAR 2\SEM 2\KIE2001\E1\E1_Simulation.sch


 ****     BJT MODEL PARAMETERS


******************************************************************************




               Q2N2222         
               NPN             
          IS   14.340000E-15 
          BF  255.9          
          NF    1            
         VAF   74.03         
         IKF     .2847       
         ISE   14.340000E-15 
          NE    1.307        
          BR    6.092        
          NR    1            
          RB   10            
          RC    1            
         CJE   22.010000E-12 
         MJE     .377        
         CJC    7.306000E-12 
         MJC     .3416       
          TF  411.100000E-12 
         XTF    3            
         VTF    1.7          
         ITF     .6          
          TR   46.910000E-09 
         XTB    1.5          
          CN    2.42         
           D     .87         


**** 04/10/22 14:27:31 *********** Evaluation PSpice (Nov 1999) **************

 * D:\UM\YEAR 2\SEM 2\KIE2001\E1\E1_Simulation.sch


 ****     SMALL SIGNAL BIAS SOLUTION       TEMPERATURE =   27.000 DEG C


******************************************************************************



 NODE   VOLTAGE     NODE   VOLTAGE     NODE   VOLTAGE     NODE   VOLTAGE


($N_0001)    0.0000                   ($N_0002)    0.0000                       

($N_0003)   12.0000                   ($N_0004)    6.4585                       

($N_0005)    1.1902                   ($N_0006)    1.9213                       

($N_0007)    0.0000                   




    VOLTAGE SOURCE CURRENTS
    NAME         CURRENT

    V_V1        -2.620E-02
    V_V3         0.000E+00

    TOTAL POWER DISSIPATION   3.14E-01  WATTS


**** 04/10/22 14:27:31 *********** Evaluation PSpice (Nov 1999) **************

 * D:\UM\YEAR 2\SEM 2\KIE2001\E1\E1_Simulation.sch


 ****     OPERATING POINT INFORMATION      TEMPERATURE =   27.000 DEG C


******************************************************************************






**** BIPOLAR JUNCTION TRANSISTORS


NAME         Q_Q1      
MODEL        Q2N2222   
IB           1.35E-04 
IC           2.52E-02 
VBE          7.31E-01 
VBC         -4.54E+00 
VCE          5.27E+00 
BETADC       1.87E+02 
GM           9.04E-01 
RPI          2.04E+02 
RX           1.00E+01 
RO           3.12E+03 
CBE          4.11E-10 
CBC          3.76E-12 
CJS          0.00E+00 
BETAAC       1.85E+02 
CBX/CBX2     0.00E+00 
FT/FT2       3.47E+08 


**** 04/10/22 14:27:31 *********** Evaluation PSpice (Nov 1999) **************

 * D:\UM\YEAR 2\SEM 2\KIE2001\E1\E1_Simulation.sch


 ****     INITIAL TRANSIENT SOLUTION       TEMPERATURE =   27.000 DEG C


******************************************************************************



 NODE   VOLTAGE     NODE   VOLTAGE     NODE   VOLTAGE     NODE   VOLTAGE


($N_0001)    0.0000                   ($N_0002)    0.0000                       

($N_0003)   12.0000                   ($N_0004)    6.4585                       

($N_0005)    1.1902                   ($N_0006)    1.9213                       

($N_0007)    0.0000                   




    VOLTAGE SOURCE CURRENTS
    NAME         CURRENT

    V_V1        -2.620E-02
    V_V3         0.000E+00

    TOTAL POWER DISSIPATION   3.14E-01  WATTS



          JOB CONCLUDED

          TOTAL JOB TIME             .06
