
**** 04/12/22 15:58:15 *********** Evaluation PSpice (Nov 1999) **************

 * D:\UM\YEAR 2\SEM 2\KIE2001\E1\Open ended.sch


 ****     CIRCUIT DESCRIPTION


******************************************************************************




* Schematics Version 9.1 - Web Update 1
* Tue Apr 12 15:58:15 2022



** Analysis setup **
.ac DEC 200 1 35k
.OP 


* From [PSPICE NETLIST] section of pspiceev.ini:
.lib "nom.lib"

.INC "Open ended.net"

**** INCLUDING "Open ended.net" ****
* Schematics Netlist *



Q_Q1         $N_0002 $N_0001 $N_0003 Q2N2222
Q_Q3         $N_0005 $N_0004 $N_0006 Q2N2222
Q_Q2         $N_0005 $N_0007 $N_0004 Q2N2222
R_R1         $N_0009 $N_0008  1.8k  
C_C1         $N_0008 $N_0001  1.2u  
C_C2         $N_0002 $N_0007  1.2u  
C_C3         $N_0006 $N_0010  1.2u  
V_V3         $N_0009 0 DC 0V AC 12V 
C_C4         0 0  1.2u  
V_V1         $N_0005 0 12V
R_R7         0 $N_0010  1M  
R_R6         0 $N_0006  12  
R_R3         0 $N_0001  40k  
R_R5         $N_0002 $N_0005  50k  
R_R4         0 $N_0003  5k  
R_R2         $N_0001 $N_0005  40k  

**** RESUMING "Open ended.cir" ****
.INC "Open ended.als"



**** INCLUDING "Open ended.als" ****
* Schematics Aliases *

.ALIASES
Q_Q1            Q1(c=$N_0002 b=$N_0001 e=$N_0003 )
Q_Q3            Q3(c=$N_0005 b=$N_0004 e=$N_0006 )
Q_Q2            Q2(c=$N_0005 b=$N_0007 e=$N_0004 )
R_R1            R1(1=$N_0009 2=$N_0008 )
C_C1            C1(1=$N_0008 2=$N_0001 )
C_C2            C2(1=$N_0002 2=$N_0007 )
C_C3            C3(1=$N_0006 2=$N_0010 )
V_V3            V3(+=$N_0009 -=0 )
C_C4            C4(1=0 2=0 )
V_V1            V1(+=$N_0005 -=0 )
R_R7            R7(1=0 2=$N_0010 )
R_R6            R6(1=0 2=$N_0006 )
R_R3            R3(1=0 2=$N_0001 )
R_R5            R5(1=$N_0002 2=$N_0005 )
R_R4            R4(1=0 2=$N_0003 )
R_R2            R2(1=$N_0001 2=$N_0005 )
.ENDALIASES


**** RESUMING "Open ended.cir" ****
.probe


.END

**** 04/12/22 15:58:15 *********** Evaluation PSpice (Nov 1999) **************

 * D:\UM\YEAR 2\SEM 2\KIE2001\E1\Open ended.sch


 ****     BJT MODEL PARAMETERS


******************************************************************************




               Q2N2222         
               NPN             
          IS   14.340000E-15 
          BF  255.9          
          NF    1            
         VAF   74.03         
         IKF     .2847       
         ISE   14.340000E-15 
          NE    1.307        
          BR    6.092        
          NR    1            
          RB   10            
          RC    1            
         CJE   22.010000E-12 
         MJE     .377        
         CJC    7.306000E-12 
         MJC     .3416       
          TF  411.100000E-12 
         XTF    3            
         VTF    1.7          
         ITF     .6          
          TR   46.910000E-09 
         XTB    1.5          
          CN    2.42         
           D     .87         


**** 04/12/22 15:58:15 *********** Evaluation PSpice (Nov 1999) **************

 * D:\UM\YEAR 2\SEM 2\KIE2001\E1\Open ended.sch


 ****     SMALL SIGNAL BIAS SOLUTION       TEMPERATURE =   27.000 DEG C


******************************************************************************



 NODE   VOLTAGE     NODE   VOLTAGE     NODE   VOLTAGE     NODE   VOLTAGE


($N_0001)    2.5337                   ($N_0002)    1.8863                       

($N_0003)    1.8780                   ($N_0004)     .2538                       

($N_0005)   12.0000                   ($N_0006) 4.138E-09                       

($N_0007)     .4187                   ($N_0008)    0.0000                       

($N_0009)    0.0000                   ($N_0010)    0.0000                   




    VOLTAGE SOURCE CURRENTS
    NAME         CURRENT

    V_V3         0.000E+00
    V_V1        -4.389E-04

    TOTAL POWER DISSIPATION   5.27E-03  WATTS


**** 04/12/22 15:58:15 *********** Evaluation PSpice (Nov 1999) **************

 * D:\UM\YEAR 2\SEM 2\KIE2001\E1\Open ended.sch


 ****     OPERATING POINT INFORMATION      TEMPERATURE =   27.000 DEG C


******************************************************************************






**** BIPOLAR JUNCTION TRANSISTORS


NAME         Q_Q1        Q_Q3        Q_Q2      
MODEL        Q2N2222     Q2N2222     Q2N2222   
IB           1.73E-04    2.52E-11    1.98E-19 
IC           2.02E-04    3.20E-10    2.52E-11 
VBE          6.56E-01    2.54E-01    1.65E-01 
VBC          6.47E-01   -1.17E+01   -1.16E+01 
VCE          8.37E-03    1.20E+01    1.17E+01 
BETADC       1.17E+00    1.27E+01    1.28E+08 
GM           1.41E-02    1.17E-08    3.76E-10 
RPI          3.18E+03    1.23E+09    1.75E+10 
RX           1.00E+01    1.00E+01    1.00E+01 
RO           2.62E+01    2.06E+11    7.00E+11 
CBE          5.80E-11    2.57E-11    2.42E-11 
CBC          1.83E-09    2.79E-12    2.81E-12 
CJS          0.00E+00    0.00E+00    0.00E+00 
BETAAC       4.49E+01    1.44E+01    6.60E+00 
CBX/CBX2     0.00E+00    0.00E+00    0.00E+00 
FT/FT2       1.19E+06    6.55E+01    2.22E+00 



          JOB CONCLUDED

          TOTAL JOB TIME             .06
